Time [s],Value,Parity Error,Framing Error
0.883326000000000,1,,
1.041627000000000,'177',,
1.050743000000000,'127',,
1.166776000000000,3,,
1.317618000000000,'179',,
1.326734000000000,'127',,
1.964083000000000,'205',,
1.973200000000000,'127',,
2.116582000000000,N,,
2.288144000000000,'206',,
2.297261000000000,'127',,
2.413293000000000,O,,
2.571594000000000,'207',,
2.580711000000000,'127',,
2.717463000000000,P,,
2.855044000000000,'208',,
2.864161000000000,'127',,
3.015003000000000,Q,,
3.165845000000000,'209',,
3.174962000000000,'127',,
3.311714000000000,R,,
3.462556000000000,'210',,
3.471673000000000,'127',,
3.622515000000000,S,,
3.752637000000000,'211',,
3.761753000000000,'127',,
3.919226000000000,T,,
4.042717000000000,'212',,
4.051834000000000,'127',,
4.215937000000000,U,,
4.339428000000000,'213',,
4.348545000000000,'127',,
4.499387000000000,V,,
4.616248000000000,'214',,
4.625365000000000,'127',,
4.803557000000000,W,,
4.912959000000000,'215',,
4.922076000000000,'127',,
5.079548000000000,X,,
5.209670000000000,'216',,
5.218787000000000,'127',,
5.842046000000000,[,,
5.945646000000000,'219',,
5.954763000000000,'127',,
6.126324000000000,\,,
6.229096000000000,'220',,
6.238213000000000,'127',,
6.429666000000000,],,
6.608687000000000,'221',,
6.617804000000000,'127',,
